
T6404 000:283 SEGGER J-Link V5.12e Log File (0000ms, 0266ms total)
T6404 000:283 DLL Compiled: Apr 29 2016 15:03:58 (0000ms, 0266ms total)
T6404 000:283 Logging started @ 2025-11-23 11:39 (0000ms, 0266ms total)
T6404 000:283 JLINK_SetWarnOutHandler(...) (0000ms, 0266ms total)
T6404 000:283 JLINK_OpenEx(...)
Firmware: J-Link V9 compiled Dec 13 2022 11:14:50
Hardware: V9.70
S/N: 69730342
Feature(s): RDI, GDB, FlashDL, FlashBP, JFlash  returns O.K. (0265ms, 0531ms total)
T6404 000:548 JLINK_SetErrorOutHandler(...) (0000ms, 0531ms total)
T6404 000:548 JLINK_ExecCommand("ProjectFile = "E:\GitHub_Repo\004_FreeRTOS_SPI\USER\JLinkSettings.ini"", ...)  returns 0x00 (0000ms, 0531ms total)
T6404 000:550 JLINK_ExecCommand("Device = STM32F103RC", ...)Device "STM32F103RC" selected.  returns 0x00 (0005ms, 0536ms total)
T6404 000:555 JLINK_ExecCommand("DisableConnectionTimeout", ...)  returns 0x01 (0000ms, 0536ms total)
T6404 000:555 JLINK_GetHardwareVersion()  returns 0x17AE8 (0000ms, 0536ms total)
T6404 000:555 JLINK_GetDLLVersion()  returns 51205 (0000ms, 0536ms total)
T6404 000:555 JLINK_GetFirmwareString(...) (0000ms, 0536ms total)
T6404 000:562 JLINK_GetDLLVersion()  returns 51205 (0000ms, 0536ms total)
T6404 000:562 JLINK_GetCompileDateTime() (0000ms, 0536ms total)
T6404 000:564 JLINK_GetFirmwareString(...) (0000ms, 0536ms total)
T6404 000:565 JLINK_GetHardwareVersion()  returns 0x17AE8 (0000ms, 0536ms total)
T6404 000:570 JLINK_TIF_Select(JLINKARM_TIF_JTAG)  returns 0x00 (0000ms, 0536ms total)
T6404 000:570 JLINK_SetSpeed(5000) (0001ms, 0537ms total)
T6404 000:571 JLINK_GetIdData(...) >0x2F8 JTAG>TotalIRLen = 9, IRPrint = 0x0011 >0x30 JTAG> >0x210 JTAG> >0x40 JTAG> >0x40 JTAG> >0x40 JTAG> >0x30 JTAG> >0x40 JTAG> >0x40 JTAG> >0x40 JTAG> >0x40 JTAG> >0x40 JTAG> >0x40 JTAG> >0x40 JTAG> >0x40 JTAG> >0x40 JTAG> >0x40 JTAG> >0x40 JTAG> >0x40 JTAG> >0x40 JTAG> >0x40 JTAG> >0x40 JTAG> >0x40 JTAG> >0x40 JTAG> >0x40 JTAG> >0x40 JTAG> >0x40 JTAG> >0x2F8 JTAG>TotalIRLen = 9, IRPrint = 0x0011 >0x30 JTAG> >0x210 JTAG> >0x70 JTAG> >0x50 JTAG> >0x40 JTAG>
 >0x50 JTAG> >0x80 JTAG> >0x40 JTAG> >0x30 JTAG> >0x40 JTAG> >0x40 JTAG> >0x30 JTAG> >0x40 JTAG> >0x50 JTAG>Found Cortex-M3 r1p1, Little endian. -- CPU_ReadMem(4 bytes @ 0xE000EDF0) -- CPU_ReadMem(4 bytes @ 0xE0002000)FPUnit: 6 code (BP) slots and 2 literal slots -- CPU_ReadMem(4 bytes @ 0xE000EDFC) -- CPU_ReadMem(4 bytes @ 0xE0001000) -- CPU_WriteMem(4 bytes @ 0xE0001000) -- CPU_ReadMem(4 bytes @ 0xE000ED88) -- CPU_WriteMem(4 bytes @ 0xE000ED88) -- CPU_ReadMem(4 bytes @ 0xE000ED88)
 -- CPU_WriteMem(4 bytes @ 0xE000ED88)CoreSight components:ROMTbl 0 @ E00FF000 -- CPU_ReadMem(16 bytes @ 0xE00FF000) -- CPU_ReadMem(16 bytes @ 0xE000EFF0) -- CPU_ReadMem(16 bytes @ 0xE000EFE0)ROMTbl 0 [0]: FFF0F000, CID: B105E00D, PID: 001BB000 SCS -- CPU_ReadMem(16 bytes @ 0xE0001FF0) -- CPU_ReadMem(16 bytes @ 0xE0001FE0)ROMTbl 0 [1]: FFF02000, CID: B105E00D, PID: 001BB002 DWT -- CPU_ReadMem(16 bytes @ 0xE0002FF0) -- CPU_ReadMem(16 bytes @ 0xE0002FE0)
ROMTbl 0 [2]: FFF03000, CID: B105E00D, PID: 000BB003 FPB -- CPU_ReadMem(16 bytes @ 0xE0000FF0) -- CPU_ReadMem(16 bytes @ 0xE0000FE0)ROMTbl 0 [3]: FFF01000, CID: B105E00D, PID: 001BB001 ITM -- CPU_ReadMem(16 bytes @ 0xE00FF010) -- CPU_ReadMem(16 bytes @ 0xE0040FF0) -- CPU_ReadMem(16 bytes @ 0xE0040FE0)ROMTbl 0 [4]: FFF41000, CID: B105900D, PID: 001BB923 TPIU-Lite -- CPU_ReadMem(16 bytes @ 0xE0041FF0) -- CPU_ReadMem(16 bytes @ 0xE0041FE0)ROMTbl 0 [5]: FFF42000, CID: B105900D, PID: 101BB924 ETM-M3 ScanLen=9
 NumDevices=2 aId[0]=0x3BA00477 aIrRead[0]=0 aScanLen[0]=0 aScanRead[0]=0 (0032ms, 0569ms total)
T6404 000:603 JLINK_JTAG_GetDeviceID(DeviceIndex = 0)  returns 0x3BA00477 (0000ms, 0569ms total)
T6404 000:603 JLINK_JTAG_GetDeviceInfo(DeviceIndex = 0)  returns 0x00 (0000ms, 0569ms total)
T6404 000:603 JLINK_JTAG_GetDeviceID(DeviceIndex = 1)  returns 0x6414041 (0000ms, 0569ms total)
T6404 000:603 JLINK_JTAG_GetDeviceInfo(DeviceIndex = 1)  returns 0x00 (0000ms, 0569ms total)
T6404 000:603 JLINK_GetDLLVersion()  returns 51205 (0000ms, 0569ms total)
T6404 000:603 JLINK_CORE_GetFound()  returns 0x30000FF (0000ms, 0569ms total)
T6404 000:603 JLINK_GetDebugInfo(0x100) -- Value=0xE00FF003  returns 0x00 (0000ms, 0569ms total)
T6404 000:605 JLINK_GetDebugInfo(0x100) -- Value=0xE00FF003  returns 0x00 (0000ms, 0569ms total)
T6404 000:605 JLINK_GetDebugInfo(0x101) -- Value=0xE0041000  returns 0x00 (0000ms, 0569ms total)
T6404 000:605 JLINK_GetDebugInfo(0x102) -- Value=0x00000000  returns 0x00 (0000ms, 0569ms total)
T6404 000:605 JLINK_GetDebugInfo(0x103) -- Value=0xE0040000  returns 0x00 (0000ms, 0569ms total)
T6404 000:605 JLINK_GetDebugInfo(0x104) -- Value=0xE0000000  returns 0x00 (0000ms, 0569ms total)
T6404 000:605 JLINK_GetDebugInfo(0x105) -- Value=0xE0001000  returns 0x00 (0000ms, 0569ms total)
T6404 000:605 JLINK_GetDebugInfo(0x106) -- Value=0xE0002000  returns 0x00 (0000ms, 0569ms total)
T6404 000:605 JLINK_GetDebugInfo(0x107) -- Value=0xE000E000  returns 0x00 (0000ms, 0569ms total)
T6404 000:605 JLINK_GetDebugInfo(0x10C) -- Value=0xE000EDF0  returns 0x00 (0000ms, 0569ms total)
T6404 000:605 JLINK_ReadMemU32(0xE000ED00, 0x0001 Items, ...) -- CPU is running -- CPU_ReadMem(4 bytes @ 0xE000ED00) - Data: 31 C2 1F 41  returns 0x01 (0000ms, 0569ms total)
T6404 000:605 JLINK_SetResetType(JLINKARM_RESET_TYPE_NORMAL)  returns JLINKARM_RESET_TYPE_NORMAL (0000ms, 0569ms total)
T6404 000:605 JLINK_Reset() -- CPU is running -- CPU_WriteMem(4 bytes @ 0xE000EDF0) -- CPU is running -- CPU_WriteMem(4 bytes @ 0xE000EDFC) -- CPU is running -- CPU_WriteMem(4 bytes @ 0xE000ED0C) -- CPU is running -- CPU_ReadMem(4 bytes @ 0xE000EDF0) -- CPU is running -- CPU_ReadMem(4 bytes @ 0xE000EDF0) -- CPU is running -- CPU_WriteMem(4 bytes @ 0xE000EDF0) -- CPU is running -- CPU_WriteMem(4 bytes @ 0xE000EDFC) -- CPU is running -- CPU_ReadMem(4 bytes @ 0xE000EDF0) >0x80 JTAG> >0x40 JTAG> >0x30 JTAG>
 >0x40 JTAG> >0x50 JTAG> >0x40 JTAG> -- CPU_WriteMem(4 bytes @ 0xE000EDFC) -- CPU_WriteMem(4 bytes @ 0xE0001028) -- CPU_WriteMem(4 bytes @ 0xE0001038) -- CPU_WriteMem(4 bytes @ 0xE0001048) -- CPU_WriteMem(4 bytes @ 0xE0001058) -- CPU_WriteMem(4 bytes @ 0xE0002000) -- CPU_ReadMem(4 bytes @ 0xE000EDFC) -- CPU_ReadMem(4 bytes @ 0xE0001000) (0024ms, 0593ms total)
T6404 000:629 JLINK_Halt()  returns 0x00 (0000ms, 0593ms total)
T6404 000:629 JLINK_IsHalted()  returns TRUE (0000ms, 0593ms total)
T6404 000:629 JLINK_ReadMemU32(0xE000EDF0, 0x0001 Items, ...) -- CPU_ReadMem(4 bytes @ 0xE000EDF0) - Data: 03 00 03 00  returns 0x01 (0000ms, 0593ms total)
T6404 000:629 JLINK_WriteU32(0xE000EDF0, 0xA05F0003) -- CPU_WriteMem(4 bytes @ 0xE000EDF0)  returns 0x00 (0000ms, 0593ms total)
T6404 000:629 JLINK_WriteU32(0xE000EDFC, 0x01000000) -- CPU_WriteMem(4 bytes @ 0xE000EDFC)  returns 0x00 (0001ms, 0594ms total)
T6404 000:634 JLINK_GetHWStatus(...)  returns 0x00 (0000ms, 0594ms total)
T6404 000:637 JLINK_GetNumBPUnits(Type = 0xFFFFFF00)  returns 0x06 (0000ms, 0594ms total)
T6404 000:637 JLINK_GetNumBPUnits(Type = 0xF0)  returns 0x2000 (0000ms, 0594ms total)
T6404 000:637 JLINK_GetNumWPUnits()  returns 0x04 (0000ms, 0594ms total)
T6404 000:641 JLINK_GetSpeed()  returns 0x1388 (0000ms, 0594ms total)
T6404 000:643 JLINK_ReadMemU32(0xE000E004, 0x0001 Items, ...) -- CPU_ReadMem(4 bytes @ 0xE000E004) - Data: 01 00 00 00  returns 0x01 (0000ms, 0594ms total)
T6404 000:643 JLINK_ReadMemU32(0xE000E004, 0x0001 Items, ...) -- CPU_ReadMem(4 bytes @ 0xE000E004) - Data: 01 00 00 00  returns 0x01 (0000ms, 0594ms total)
T6404 000:643 JLINK_WriteMem(0xE0001000, 0x001C Bytes, ...) - Data: 01 00 00 00 00 00 00 00 00 00 00 00 00 00 00 00 ... -- CPU_WriteMem(28 bytes @ 0xE0001000)  returns 0x1C (0001ms, 0595ms total)
T6404 000:644 JLINK_ReadMem (0xE0001000, 0x001C Bytes, ...) -- CPU_ReadMem(28 bytes @ 0xE0001000) - Data: 01 00 00 40 00 00 00 00 00 00 00 00 00 00 00 00 ...  returns 0x00 (0000ms, 0595ms total)
T6404 000:644 JLINK_Halt()  returns 0x00 (0000ms, 0595ms total)
T6404 000:644 JLINK_IsHalted()  returns TRUE (0000ms, 0595ms total)
T6404 000:646 JLINK_WriteMem(0x20000000, 0x0164 Bytes, ...) - Data: 00 BE 0A E0 0D 78 2D 06 68 40 08 24 40 00 00 D3 ... -- CPU_WriteMem(356 bytes @ 0x20000000)  returns 0x164 (0002ms, 0597ms total)
T6404 000:648 JLINK_WriteReg(R0, 0x08000000)  returns 0x00 (0000ms, 0597ms total)
T6404 000:648 JLINK_WriteReg(R1, 0x00B71B00)  returns 0x00 (0000ms, 0597ms total)
T6404 000:648 JLINK_WriteReg(R2, 0x00000001)  returns 0x00 (0000ms, 0597ms total)
T6404 000:648 JLINK_WriteReg(R3, 0x00000000)  returns 0x00 (0000ms, 0597ms total)
T6404 000:648 JLINK_WriteReg(R4, 0x00000000)  returns 0x00 (0000ms, 0597ms total)
T6404 000:648 JLINK_WriteReg(R5, 0x00000000)  returns 0x00 (0000ms, 0597ms total)
T6404 000:648 JLINK_WriteReg(R6, 0x00000000)  returns 0x00 (0000ms, 0597ms total)
T6404 000:648 JLINK_WriteReg(R7, 0x00000000)  returns 0x00 (0000ms, 0597ms total)
T6404 000:648 JLINK_WriteReg(R8, 0x00000000)  returns 0x00 (0000ms, 0597ms total)
T6404 000:648 JLINK_WriteReg(R9, 0x20000160)  returns 0x00 (0000ms, 0597ms total)
T6404 000:648 JLINK_WriteReg(R10, 0x00000000)  returns 0x00 (0000ms, 0597ms total)
T6404 000:648 JLINK_WriteReg(R11, 0x00000000)  returns 0x00 (0000ms, 0597ms total)
T6404 000:648 JLINK_WriteReg(R12, 0x00000000)  returns 0x00 (0000ms, 0597ms total)
T6404 000:648 JLINK_WriteReg(R13 (SP), 0x20001000)  returns 0x00 (0000ms, 0597ms total)
T6404 000:648 JLINK_WriteReg(R14, 0x20000001)  returns 0x00 (0000ms, 0597ms total)
T6404 000:648 JLINK_WriteReg(R15 (PC), 0x20000038)  returns 0x00 (0000ms, 0597ms total)
T6404 000:648 JLINK_WriteReg(XPSR, 0x01000000)  returns 0x00 (0000ms, 0597ms total)
T6404 000:648 JLINK_WriteReg(MSP, 0x20001000)  returns 0x00 (0000ms, 0597ms total)
T6404 000:648 JLINK_WriteReg(PSP, 0x20001000)  returns 0x00 (0000ms, 0597ms total)
T6404 000:648 JLINK_WriteReg(CFBP, 0x00000000)  returns 0x00 (0000ms, 0597ms total)
T6404 000:648 JLINK_SetBPEx(Addr = 0x20000000, Type = 0xFFFFFFF2) -- CPU_ReadMem(2 bytes @ 0x20000000)  returns 0x00000001 (0001ms, 0598ms total)
T6404 000:649 JLINK_Go() -- CPU_WriteMem(2 bytes @ 0x20000000) -- CPU_ReadMem(4 bytes @ 0xE0001000) -- CPU_WriteMem(4 bytes @ 0xE0002008) -- CPU_WriteMem(4 bytes @ 0xE000200C) -- CPU_WriteMem(4 bytes @ 0xE0002010) -- CPU_WriteMem(4 bytes @ 0xE0002014) -- CPU_WriteMem(4 bytes @ 0xE0002018) -- CPU_WriteMem(4 bytes @ 0xE000201C) -- CPU_WriteMem(4 bytes @ 0xE0001004) (0003ms, 0601ms total)
T6404 000:652 JLINK_IsHalted() -- CPU_ReadMem(2 bytes @ 0x20000000)  returns TRUE (0003ms, 0604ms total)
T6404 000:655 JLINK_ReadReg(R15 (PC))  returns 0x20000000 (0000ms, 0601ms total)
T6404 000:655 JLINK_ClrBPEx(BPHandle = 0x00000001)  returns 0x00 (0000ms, 0601ms total)
T6404 000:655 JLINK_ReadReg(R0)  returns 0x00000000 (0000ms, 0601ms total)
T6404 000:655 JLINK_WriteReg(R0, 0x08000000)  returns 0x00 (0000ms, 0601ms total)
T6404 000:655 JLINK_WriteReg(R1, 0x00B71B00)  returns 0x00 (0000ms, 0601ms total)
T6404 000:655 JLINK_WriteReg(R2, 0x00000001)  returns 0x00 (0000ms, 0601ms total)
T6404 000:655 JLINK_WriteReg(R3, 0x00000000)  returns 0x00 (0000ms, 0601ms total)
T6404 000:655 JLINK_WriteReg(R4, 0x00000000)  returns 0x00 (0000ms, 0601ms total)
T6404 000:655 JLINK_WriteReg(R5, 0x00000000)  returns 0x00 (0000ms, 0601ms total)
T6404 000:655 JLINK_WriteReg(R6, 0x00000000)  returns 0x00 (0000ms, 0601ms total)
T6404 000:655 JLINK_WriteReg(R7, 0x00000000)  returns 0x00 (0000ms, 0601ms total)
T6404 000:655 JLINK_WriteReg(R8, 0x00000000)  returns 0x00 (0000ms, 0601ms total)
T6404 000:655 JLINK_WriteReg(R9, 0x20000160)  returns 0x00 (0000ms, 0601ms total)
T6404 000:655 JLINK_WriteReg(R10, 0x00000000)  returns 0x00 (0000ms, 0601ms total)
T6404 000:655 JLINK_WriteReg(R11, 0x00000000)  returns 0x00 (0000ms, 0601ms total)
T6404 000:655 JLINK_WriteReg(R12, 0x00000000)  returns 0x00 (0000ms, 0601ms total)
T6404 000:655 JLINK_WriteReg(R13 (SP), 0x20001000)  returns 0x00 (0000ms, 0601ms total)
T6404 000:655 JLINK_WriteReg(R14, 0x20000001)  returns 0x00 (0000ms, 0601ms total)
T6404 000:655 JLINK_WriteReg(R15 (PC), 0x2000007C)  returns 0x00 (0000ms, 0601ms total)
T6404 000:655 JLINK_WriteReg(XPSR, 0x01000000)  returns 0x00 (0000ms, 0601ms total)
T6404 000:655 JLINK_WriteReg(MSP, 0x20001000)  returns 0x00 (0000ms, 0601ms total)
T6404 000:655 JLINK_WriteReg(PSP, 0x20001000)  returns 0x00 (0000ms, 0601ms total)
T6404 000:655 JLINK_WriteReg(CFBP, 0x00000000)  returns 0x00 (0000ms, 0601ms total)
T6404 000:655 JLINK_SetBPEx(Addr = 0x20000000, Type = 0xFFFFFFF2)  returns 0x00000002 (0000ms, 0601ms total)
T6404 000:655 JLINK_Go() -- CPU_ReadMem(4 bytes @ 0xE0001000) (0001ms, 0602ms total)
T6404 000:656 JLINK_IsHalted()  returns FALSE (0001ms, 0603ms total)
T6404 000:675 JLINK_IsHalted()  returns FALSE (0000ms, 0602ms total)
T6404 000:678 JLINK_IsHalted()  returns FALSE (0000ms, 0602ms total)
T6404 000:680 JLINK_IsHalted() -- CPU_ReadMem(2 bytes @ 0x20000000)  returns TRUE (0002ms, 0604ms total)
T6404 000:682 JLINK_ReadReg(R15 (PC))  returns 0x20000000 (0000ms, 0602ms total)
T6404 000:682 JLINK_ClrBPEx(BPHandle = 0x00000002)  returns 0x00 (0000ms, 0602ms total)
T6404 000:682 JLINK_ReadReg(R0)  returns 0x00000000 (0000ms, 0602ms total)
T6404 000:735 JLINK_WriteReg(R0, 0x00000001)  returns 0x00 (0000ms, 0602ms total)
T6404 000:735 JLINK_WriteReg(R1, 0x00B71B00)  returns 0x00 (0000ms, 0602ms total)
T6404 000:735 JLINK_WriteReg(R2, 0x00000001)  returns 0x00 (0000ms, 0602ms total)
T6404 000:735 JLINK_WriteReg(R3, 0x00000000)  returns 0x00 (0000ms, 0602ms total)
T6404 000:735 JLINK_WriteReg(R4, 0x00000000)  returns 0x00 (0000ms, 0602ms total)
T6404 000:735 JLINK_WriteReg(R5, 0x00000000)  returns 0x00 (0000ms, 0602ms total)
T6404 000:735 JLINK_WriteReg(R6, 0x00000000)  returns 0x00 (0000ms, 0602ms total)
T6404 000:735 JLINK_WriteReg(R7, 0x00000000)  returns 0x00 (0000ms, 0602ms total)
T6404 000:735 JLINK_WriteReg(R8, 0x00000000)  returns 0x00 (0000ms, 0602ms total)
T6404 000:735 JLINK_WriteReg(R9, 0x20000160)  returns 0x00 (0000ms, 0602ms total)
T6404 000:735 JLINK_WriteReg(R10, 0x00000000)  returns 0x00 (0000ms, 0602ms total)
T6404 000:735 JLINK_WriteReg(R11, 0x00000000)  returns 0x00 (0000ms, 0602ms total)
T6404 000:735 JLINK_WriteReg(R12, 0x00000000)  returns 0x00 (0000ms, 0602ms total)
T6404 000:735 JLINK_WriteReg(R13 (SP), 0x20001000)  returns 0x00 (0000ms, 0602ms total)
T6404 000:735 JLINK_WriteReg(R14, 0x20000001)  returns 0x00 (0000ms, 0602ms total)
T6404 000:735 JLINK_WriteReg(R15 (PC), 0x2000006A)  returns 0x00 (0000ms, 0602ms total)
T6404 000:735 JLINK_WriteReg(XPSR, 0x01000000)  returns 0x00 (0000ms, 0602ms total)
T6404 000:735 JLINK_WriteReg(MSP, 0x20001000)  returns 0x00 (0000ms, 0602ms total)
T6404 000:735 JLINK_WriteReg(PSP, 0x20001000)  returns 0x00 (0000ms, 0602ms total)
T6404 000:735 JLINK_WriteReg(CFBP, 0x00000000)  returns 0x00 (0000ms, 0602ms total)
T6404 000:735 JLINK_SetBPEx(Addr = 0x20000000, Type = 0xFFFFFFF2)  returns 0x00000003 (0000ms, 0602ms total)
T6404 000:735 JLINK_Go() -- CPU_ReadMem(4 bytes @ 0xE0001000) (0001ms, 0603ms total)
T6404 000:736 JLINK_IsHalted() -- CPU_ReadMem(2 bytes @ 0x20000000)  returns TRUE (0003ms, 0606ms total)
T6404 000:739 JLINK_ReadReg(R15 (PC))  returns 0x20000000 (0000ms, 0603ms total)
T6404 000:739 JLINK_ClrBPEx(BPHandle = 0x00000003)  returns 0x00 (0000ms, 0603ms total)
T6404 000:739 JLINK_ReadReg(R0)  returns 0x00000000 (0000ms, 0603ms total)
T6404 000:743 JLINK_WriteMem(0x20000000, 0x0164 Bytes, ...) - Data: 00 BE 0A E0 0D 78 2D 06 68 40 08 24 40 00 00 D3 ... -- CPU_WriteMem(356 bytes @ 0x20000000)  returns 0x164 (0003ms, 0606ms total)
T6404 000:746 JLINK_WriteReg(R0, 0x08000000)  returns 0x00 (0000ms, 0606ms total)
T6404 000:746 JLINK_WriteReg(R1, 0x00B71B00)  returns 0x00 (0000ms, 0606ms total)
T6404 000:746 JLINK_WriteReg(R2, 0x00000002)  returns 0x00 (0000ms, 0606ms total)
T6404 000:746 JLINK_WriteReg(R3, 0x00000000)  returns 0x00 (0000ms, 0606ms total)
T6404 000:746 JLINK_WriteReg(R4, 0x00000000)  returns 0x00 (0000ms, 0606ms total)
T6404 000:746 JLINK_WriteReg(R5, 0x00000000)  returns 0x00 (0000ms, 0606ms total)
T6404 000:746 JLINK_WriteReg(R6, 0x00000000)  returns 0x00 (0000ms, 0606ms total)
T6404 000:746 JLINK_WriteReg(R7, 0x00000000)  returns 0x00 (0000ms, 0606ms total)
T6404 000:746 JLINK_WriteReg(R8, 0x00000000)  returns 0x00 (0000ms, 0606ms total)
T6404 000:746 JLINK_WriteReg(R9, 0x20000160)  returns 0x00 (0000ms, 0606ms total)
T6404 000:746 JLINK_WriteReg(R10, 0x00000000)  returns 0x00 (0000ms, 0606ms total)
T6404 000:746 JLINK_WriteReg(R11, 0x00000000)  returns 0x00 (0000ms, 0606ms total)
T6404 000:746 JLINK_WriteReg(R12, 0x00000000)  returns 0x00 (0000ms, 0606ms total)
T6404 000:746 JLINK_WriteReg(R13 (SP), 0x20001000)  returns 0x00 (0000ms, 0606ms total)
T6404 000:746 JLINK_WriteReg(R14, 0x20000001)  returns 0x00 (0000ms, 0606ms total)
T6404 000:746 JLINK_WriteReg(R15 (PC), 0x20000038)  returns 0x00 (0000ms, 0606ms total)
T6404 000:746 JLINK_WriteReg(XPSR, 0x01000000)  returns 0x00 (0000ms, 0606ms total)
T6404 000:746 JLINK_WriteReg(MSP, 0x20001000)  returns 0x00 (0000ms, 0606ms total)
T6404 000:746 JLINK_WriteReg(PSP, 0x20001000)  returns 0x00 (0000ms, 0606ms total)
T6404 000:746 JLINK_WriteReg(CFBP, 0x00000000)  returns 0x00 (0000ms, 0606ms total)
T6404 000:746 JLINK_SetBPEx(Addr = 0x20000000, Type = 0xFFFFFFF2) -- CPU_ReadMem(2 bytes @ 0x20000000)  returns 0x00000004 (0001ms, 0607ms total)
T6404 000:747 JLINK_Go() -- CPU_WriteMem(2 bytes @ 0x20000000) -- CPU_ReadMem(4 bytes @ 0xE0001000) (0001ms, 0608ms total)
T6404 000:748 JLINK_IsHalted() -- CPU_ReadMem(2 bytes @ 0x20000000)  returns TRUE (0002ms, 0610ms total)
T6404 000:750 JLINK_ReadReg(R15 (PC))  returns 0x20000000 (0000ms, 0608ms total)
T6404 000:750 JLINK_ClrBPEx(BPHandle = 0x00000004)  returns 0x00 (0000ms, 0608ms total)
T6404 000:750 JLINK_ReadReg(R0)  returns 0x00000000 (0000ms, 0608ms total)
T6404 000:751 JLINK_WriteMem(0x20000164, 0x0400 Bytes, ...) - Data: 10 5C 00 20 75 02 00 08 67 27 00 08 8F 25 00 08 ... -- CPU_WriteMem(1024 bytes @ 0x20000164)  returns 0x400 (0006ms, 0614ms total)
T6404 000:757 JLINK_WriteReg(R0, 0x08000000)  returns 0x00 (0000ms, 0614ms total)
T6404 000:757 JLINK_WriteReg(R1, 0x00000400)  returns 0x00 (0000ms, 0614ms total)
T6404 000:757 JLINK_WriteReg(R2, 0x20000164)  returns 0x00 (0000ms, 0614ms total)
T6404 000:757 JLINK_WriteReg(R3, 0x00000000)  returns 0x00 (0000ms, 0614ms total)
T6404 000:757 JLINK_WriteReg(R4, 0x00000000)  returns 0x00 (0000ms, 0614ms total)
T6404 000:757 JLINK_WriteReg(R5, 0x00000000)  returns 0x00 (0000ms, 0614ms total)
T6404 000:757 JLINK_WriteReg(R6, 0x00000000)  returns 0x00 (0000ms, 0614ms total)
T6404 000:757 JLINK_WriteReg(R7, 0x00000000)  returns 0x00 (0000ms, 0614ms total)
T6404 000:757 JLINK_WriteReg(R8, 0x00000000)  returns 0x00 (0000ms, 0614ms total)
T6404 000:757 JLINK_WriteReg(R9, 0x20000160)  returns 0x00 (0000ms, 0614ms total)
T6404 000:757 JLINK_WriteReg(R10, 0x00000000)  returns 0x00 (0000ms, 0614ms total)
T6404 000:757 JLINK_WriteReg(R11, 0x00000000)  returns 0x00 (0000ms, 0614ms total)
T6404 000:757 JLINK_WriteReg(R12, 0x00000000)  returns 0x00 (0000ms, 0614ms total)
T6404 000:757 JLINK_WriteReg(R13 (SP), 0x20001000)  returns 0x00 (0000ms, 0614ms total)
T6404 000:757 JLINK_WriteReg(R14, 0x20000001)  returns 0x00 (0000ms, 0614ms total)
T6404 000:757 JLINK_WriteReg(R15 (PC), 0x200000F4)  returns 0x00 (0000ms, 0614ms total)
T6404 000:757 JLINK_WriteReg(XPSR, 0x01000000)  returns 0x00 (0000ms, 0614ms total)
T6404 000:757 JLINK_WriteReg(MSP, 0x20001000)  returns 0x00 (0000ms, 0614ms total)
T6404 000:757 JLINK_WriteReg(PSP, 0x20001000)  returns 0x00 (0000ms, 0614ms total)
T6404 000:757 JLINK_WriteReg(CFBP, 0x00000000)  returns 0x00 (0000ms, 0614ms total)
T6404 000:757 JLINK_SetBPEx(Addr = 0x20000000, Type = 0xFFFFFFF2)  returns 0x00000005 (0000ms, 0614ms total)
T6404 000:757 JLINK_Go() -- CPU_ReadMem(4 bytes @ 0xE0001000) (0001ms, 0615ms total)
T6404 000:759 JLINK_IsHalted()  returns FALSE (0000ms, 0615ms total)
T6404 000:766 JLINK_IsHalted()  returns FALSE (0000ms, 0615ms total)
T6404 000:768 JLINK_IsHalted()  returns FALSE (0000ms, 0615ms total)
T6404 000:771 JLINK_IsHalted()  returns FALSE (0000ms, 0615ms total)
T6404 000:773 JLINK_IsHalted()  returns FALSE (0000ms, 0615ms total)
T6404 000:776 JLINK_IsHalted()  returns FALSE (0000ms, 0615ms total)
T6404 000:778 JLINK_IsHalted()  returns FALSE (0000ms, 0615ms total)
T6404 000:780 JLINK_IsHalted()  returns FALSE (0000ms, 0615ms total)
T6404 000:782 JLINK_IsHalted()  returns FALSE (0000ms, 0615ms total)
T6404 000:784 JLINK_IsHalted()  returns FALSE (0000ms, 0615ms total)
T6404 000:786 JLINK_IsHalted()  returns FALSE (0000ms, 0615ms total)
T6404 000:788 JLINK_IsHalted()  returns FALSE (0000ms, 0615ms total)
T6404 000:790 JLINK_IsHalted() -- CPU_ReadMem(2 bytes @ 0x20000000)  returns TRUE (0002ms, 0617ms total)
T6404 000:792 JLINK_ReadReg(R15 (PC))  returns 0x20000000 (0000ms, 0615ms total)
T6404 000:792 JLINK_ClrBPEx(BPHandle = 0x00000005)  returns 0x00 (0000ms, 0615ms total)
T6404 000:792 JLINK_ReadReg(R0)  returns 0x00000000 (0000ms, 0615ms total)
T6404 000:792 JLINK_WriteMem(0x20000164, 0x0400 Bytes, ...) - Data: E1 68 88 47 20 28 06 46 07 DB 31 2E 05 D2 B8 19 ... -- CPU_WriteMem(1024 bytes @ 0x20000164)  returns 0x400 (0006ms, 0621ms total)
T6404 000:798 JLINK_WriteReg(R0, 0x08000400)  returns 0x00 (0000ms, 0621ms total)
T6404 000:798 JLINK_WriteReg(R1, 0x00000400)  returns 0x00 (0000ms, 0621ms total)
T6404 000:798 JLINK_WriteReg(R2, 0x20000164)  returns 0x00 (0000ms, 0621ms total)
T6404 000:798 JLINK_WriteReg(R3, 0x00000000)  returns 0x00 (0000ms, 0621ms total)
T6404 000:798 JLINK_WriteReg(R4, 0x00000000)  returns 0x00 (0000ms, 0621ms total)
T6404 000:798 JLINK_WriteReg(R5, 0x00000000)  returns 0x00 (0000ms, 0621ms total)
T6404 000:798 JLINK_WriteReg(R6, 0x00000000)  returns 0x00 (0000ms, 0621ms total)
T6404 000:798 JLINK_WriteReg(R7, 0x00000000)  returns 0x00 (0000ms, 0621ms total)
T6404 000:798 JLINK_WriteReg(R8, 0x00000000)  returns 0x00 (0000ms, 0621ms total)
T6404 000:798 JLINK_WriteReg(R9, 0x20000160)  returns 0x00 (0000ms, 0621ms total)
T6404 000:798 JLINK_WriteReg(R10, 0x00000000)  returns 0x00 (0000ms, 0621ms total)
T6404 000:798 JLINK_WriteReg(R11, 0x00000000)  returns 0x00 (0000ms, 0621ms total)
T6404 000:798 JLINK_WriteReg(R12, 0x00000000)  returns 0x00 (0000ms, 0621ms total)
T6404 000:798 JLINK_WriteReg(R13 (SP), 0x20001000)  returns 0x00 (0000ms, 0621ms total)
T6404 000:798 JLINK_WriteReg(R14, 0x20000001)  returns 0x00 (0000ms, 0621ms total)
T6404 000:798 JLINK_WriteReg(R15 (PC), 0x200000F4)  returns 0x00 (0000ms, 0621ms total)
T6404 000:798 JLINK_WriteReg(XPSR, 0x01000000)  returns 0x00 (0000ms, 0621ms total)
T6404 000:798 JLINK_WriteReg(MSP, 0x20001000)  returns 0x00 (0000ms, 0621ms total)
T6404 000:798 JLINK_WriteReg(PSP, 0x20001000)  returns 0x00 (0000ms, 0621ms total)
T6404 000:798 JLINK_WriteReg(CFBP, 0x00000000)  returns 0x00 (0000ms, 0621ms total)
T6404 000:798 JLINK_SetBPEx(Addr = 0x20000000, Type = 0xFFFFFFF2)  returns 0x00000006 (0000ms, 0621ms total)
T6404 000:798 JLINK_Go() -- CPU_ReadMem(4 bytes @ 0xE0001000) (0001ms, 0622ms total)
T6404 000:799 JLINK_IsHalted()  returns FALSE (0001ms, 0623ms total)
T6404 000:802 JLINK_IsHalted()  returns FALSE (0000ms, 0622ms total)
T6404 000:804 JLINK_IsHalted()  returns FALSE (0000ms, 0622ms total)
T6404 000:806 JLINK_IsHalted()  returns FALSE (0000ms, 0622ms total)
T6404 000:808 JLINK_IsHalted()  returns FALSE (0000ms, 0622ms total)
T6404 000:810 JLINK_IsHalted()  returns FALSE (0000ms, 0622ms total)
T6404 000:812 JLINK_IsHalted()  returns FALSE (0000ms, 0622ms total)
T6404 000:814 JLINK_IsHalted()  returns FALSE (0000ms, 0622ms total)
T6404 000:816 JLINK_IsHalted()  returns FALSE (0000ms, 0622ms total)
T6404 000:819 JLINK_IsHalted()  returns FALSE (0000ms, 0622ms total)
T6404 000:822 JLINK_IsHalted()  returns FALSE (0000ms, 0622ms total)
T6404 000:824 JLINK_IsHalted()  returns FALSE (0000ms, 0622ms total)
T6404 000:826 JLINK_IsHalted()  returns FALSE (0000ms, 0622ms total)
T6404 000:828 JLINK_IsHalted()  returns FALSE (0000ms, 0622ms total)
T6404 000:832 JLINK_IsHalted() -- CPU_ReadMem(2 bytes @ 0x20000000)  returns TRUE (0001ms, 0623ms total)
T6404 000:833 JLINK_ReadReg(R15 (PC))  returns 0x20000000 (0000ms, 0622ms total)
T6404 000:833 JLINK_ClrBPEx(BPHandle = 0x00000006)  returns 0x00 (0000ms, 0622ms total)
T6404 000:833 JLINK_ReadReg(R0)  returns 0x00000000 (0000ms, 0622ms total)
T6404 000:834 JLINK_WriteMem(0x20000164, 0x0400 Bytes, ...) - Data: 4F F0 00 0B 21 F0 07 01 AC 46 AC E8 C0 09 AC E8 ... -- CPU_WriteMem(1024 bytes @ 0x20000164)  returns 0x400 (0006ms, 0628ms total)
T6404 000:840 JLINK_WriteReg(R0, 0x08000800)  returns 0x00 (0000ms, 0628ms total)
T6404 000:840 JLINK_WriteReg(R1, 0x00000400)  returns 0x00 (0000ms, 0628ms total)
T6404 000:840 JLINK_WriteReg(R2, 0x20000164)  returns 0x00 (0000ms, 0628ms total)
T6404 000:840 JLINK_WriteReg(R3, 0x00000000)  returns 0x00 (0000ms, 0628ms total)
T6404 000:840 JLINK_WriteReg(R4, 0x00000000)  returns 0x00 (0000ms, 0628ms total)
T6404 000:840 JLINK_WriteReg(R5, 0x00000000)  returns 0x00 (0000ms, 0628ms total)
T6404 000:840 JLINK_WriteReg(R6, 0x00000000)  returns 0x00 (0000ms, 0628ms total)
T6404 000:840 JLINK_WriteReg(R7, 0x00000000)  returns 0x00 (0000ms, 0628ms total)
T6404 000:840 JLINK_WriteReg(R8, 0x00000000)  returns 0x00 (0000ms, 0628ms total)
T6404 000:840 JLINK_WriteReg(R9, 0x20000160)  returns 0x00 (0000ms, 0628ms total)
T6404 000:840 JLINK_WriteReg(R10, 0x00000000)  returns 0x00 (0000ms, 0628ms total)
T6404 000:840 JLINK_WriteReg(R11, 0x00000000)  returns 0x00 (0000ms, 0628ms total)
T6404 000:840 JLINK_WriteReg(R12, 0x00000000)  returns 0x00 (0000ms, 0628ms total)
T6404 000:840 JLINK_WriteReg(R13 (SP), 0x20001000)  returns 0x00 (0000ms, 0628ms total)
T6404 000:840 JLINK_WriteReg(R14, 0x20000001)  returns 0x00 (0000ms, 0628ms total)
T6404 000:840 JLINK_WriteReg(R15 (PC), 0x200000F4)  returns 0x00 (0000ms, 0628ms total)
T6404 000:840 JLINK_WriteReg(XPSR, 0x01000000)  returns 0x00 (0000ms, 0628ms total)
T6404 000:840 JLINK_WriteReg(MSP, 0x20001000)  returns 0x00 (0000ms, 0628ms total)
T6404 000:840 JLINK_WriteReg(PSP, 0x20001000)  returns 0x00 (0000ms, 0628ms total)
T6404 000:840 JLINK_WriteReg(CFBP, 0x00000000)  returns 0x00 (0000ms, 0628ms total)
T6404 000:840 JLINK_SetBPEx(Addr = 0x20000000, Type = 0xFFFFFFF2)  returns 0x00000007 (0000ms, 0628ms total)
T6404 000:840 JLINK_Go() -- CPU_ReadMem(4 bytes @ 0xE0001000) (0002ms, 0630ms total)
T6404 000:842 JLINK_IsHalted()  returns FALSE (0000ms, 0630ms total)
T6404 000:844 JLINK_IsHalted()  returns FALSE (0000ms, 0630ms total)
T6404 000:846 JLINK_IsHalted()  returns FALSE (0000ms, 0630ms total)
T6404 000:849 JLINK_IsHalted()  returns FALSE (0000ms, 0630ms total)
T6404 000:851 JLINK_IsHalted()  returns FALSE (0000ms, 0630ms total)
T6404 000:854 JLINK_IsHalted()  returns FALSE (0000ms, 0630ms total)
T6404 000:856 JLINK_IsHalted()  returns FALSE (0000ms, 0630ms total)
T6404 000:858 JLINK_IsHalted()  returns FALSE (0000ms, 0630ms total)
T6404 000:860 JLINK_IsHalted()  returns FALSE (0000ms, 0630ms total)
T6404 000:862 JLINK_IsHalted()  returns FALSE (0000ms, 0630ms total)
T6404 000:864 JLINK_IsHalted()  returns FALSE (0000ms, 0630ms total)
T6404 000:866 JLINK_IsHalted()  returns FALSE (0000ms, 0630ms total)
T6404 000:868 JLINK_IsHalted()  returns FALSE (0000ms, 0630ms total)
T6404 000:870 JLINK_IsHalted()  returns FALSE (0000ms, 0630ms total)
T6404 000:872 JLINK_IsHalted()  returns FALSE (0000ms, 0630ms total)
T6404 000:874 JLINK_IsHalted() -- CPU_ReadMem(2 bytes @ 0x20000000)  returns TRUE (0002ms, 0632ms total)
T6404 000:876 JLINK_ReadReg(R15 (PC))  returns 0x20000000 (0000ms, 0630ms total)
T6404 000:876 JLINK_ClrBPEx(BPHandle = 0x00000007)  returns 0x00 (0000ms, 0630ms total)
T6404 000:876 JLINK_ReadReg(R0)  returns 0x00000000 (0000ms, 0630ms total)
T6404 000:876 JLINK_WriteMem(0x20000164, 0x0400 Bytes, ...) - Data: 0A 00 00 00 30 78 25 30 32 58 20 00 52 65 61 64 ... -- CPU_WriteMem(1024 bytes @ 0x20000164)  returns 0x400 (0006ms, 0636ms total)
T6404 000:882 JLINK_WriteReg(R0, 0x08000C00)  returns 0x00 (0000ms, 0636ms total)
T6404 000:882 JLINK_WriteReg(R1, 0x00000400)  returns 0x00 (0000ms, 0636ms total)
T6404 000:882 JLINK_WriteReg(R2, 0x20000164)  returns 0x00 (0000ms, 0636ms total)
T6404 000:882 JLINK_WriteReg(R3, 0x00000000)  returns 0x00 (0000ms, 0636ms total)
T6404 000:882 JLINK_WriteReg(R4, 0x00000000)  returns 0x00 (0000ms, 0636ms total)
T6404 000:882 JLINK_WriteReg(R5, 0x00000000)  returns 0x00 (0000ms, 0636ms total)
T6404 000:882 JLINK_WriteReg(R6, 0x00000000)  returns 0x00 (0000ms, 0636ms total)
T6404 000:882 JLINK_WriteReg(R7, 0x00000000)  returns 0x00 (0000ms, 0636ms total)
T6404 000:882 JLINK_WriteReg(R8, 0x00000000)  returns 0x00 (0000ms, 0636ms total)
T6404 000:882 JLINK_WriteReg(R9, 0x20000160)  returns 0x00 (0000ms, 0636ms total)
T6404 000:882 JLINK_WriteReg(R10, 0x00000000)  returns 0x00 (0000ms, 0636ms total)
T6404 000:882 JLINK_WriteReg(R11, 0x00000000)  returns 0x00 (0000ms, 0636ms total)
T6404 000:882 JLINK_WriteReg(R12, 0x00000000)  returns 0x00 (0000ms, 0636ms total)
T6404 000:882 JLINK_WriteReg(R13 (SP), 0x20001000)  returns 0x00 (0000ms, 0636ms total)
T6404 000:882 JLINK_WriteReg(R14, 0x20000001)  returns 0x00 (0000ms, 0636ms total)
T6404 000:882 JLINK_WriteReg(R15 (PC), 0x200000F4)  returns 0x00 (0000ms, 0636ms total)
T6404 000:882 JLINK_WriteReg(XPSR, 0x01000000)  returns 0x00 (0000ms, 0636ms total)
T6404 000:882 JLINK_WriteReg(MSP, 0x20001000)  returns 0x00 (0000ms, 0636ms total)
T6404 000:882 JLINK_WriteReg(PSP, 0x20001000)  returns 0x00 (0000ms, 0636ms total)
T6404 000:882 JLINK_WriteReg(CFBP, 0x00000000)  returns 0x00 (0000ms, 0636ms total)
T6404 000:882 JLINK_SetBPEx(Addr = 0x20000000, Type = 0xFFFFFFF2)  returns 0x00000008 (0000ms, 0636ms total)
T6404 000:882 JLINK_Go() -- CPU_ReadMem(4 bytes @ 0xE0001000) (0002ms, 0638ms total)
T6404 000:884 JLINK_IsHalted()  returns FALSE (0000ms, 0638ms total)
T6404 000:888 JLINK_IsHalted()  returns FALSE (0000ms, 0638ms total)
T6404 000:891 JLINK_IsHalted()  returns FALSE (0009ms, 0647ms total)
T6404 000:903 JLINK_IsHalted()  returns FALSE (0000ms, 0638ms total)
T6404 000:906 JLINK_IsHalted()  returns FALSE (0000ms, 0638ms total)
T6404 000:909 JLINK_IsHalted()  returns FALSE (0000ms, 0638ms total)
T6404 000:912 JLINK_IsHalted()  returns FALSE (0000ms, 0638ms total)
T6404 000:914 JLINK_IsHalted()  returns FALSE (0000ms, 0638ms total)
T6404 000:916 JLINK_IsHalted() -- CPU_ReadMem(2 bytes @ 0x20000000)  returns TRUE (0002ms, 0640ms total)
T6404 000:918 JLINK_ReadReg(R15 (PC))  returns 0x20000000 (0000ms, 0638ms total)
T6404 000:918 JLINK_ClrBPEx(BPHandle = 0x00000008)  returns 0x00 (0000ms, 0638ms total)
T6404 000:918 JLINK_ReadReg(R0)  returns 0x00000000 (0000ms, 0638ms total)
T6404 000:918 JLINK_WriteMem(0x20000164, 0x0400 Bytes, ...) - Data: 4B 65 79 31 5F 45 76 65 6E 74 5F 54 72 69 70 6C ... -- CPU_WriteMem(1024 bytes @ 0x20000164)  returns 0x400 (0006ms, 0644ms total)
T6404 000:924 JLINK_WriteReg(R0, 0x08001000)  returns 0x00 (0000ms, 0644ms total)
T6404 000:924 JLINK_WriteReg(R1, 0x00000400)  returns 0x00 (0000ms, 0644ms total)
T6404 000:924 JLINK_WriteReg(R2, 0x20000164)  returns 0x00 (0000ms, 0644ms total)
T6404 000:924 JLINK_WriteReg(R3, 0x00000000)  returns 0x00 (0000ms, 0644ms total)
T6404 000:924 JLINK_WriteReg(R4, 0x00000000)  returns 0x00 (0000ms, 0644ms total)
T6404 000:924 JLINK_WriteReg(R5, 0x00000000)  returns 0x00 (0000ms, 0644ms total)
T6404 000:924 JLINK_WriteReg(R6, 0x00000000)  returns 0x00 (0000ms, 0644ms total)
T6404 000:924 JLINK_WriteReg(R7, 0x00000000)  returns 0x00 (0000ms, 0644ms total)
T6404 000:924 JLINK_WriteReg(R8, 0x00000000)  returns 0x00 (0000ms, 0644ms total)
T6404 000:924 JLINK_WriteReg(R9, 0x20000160)  returns 0x00 (0000ms, 0644ms total)
T6404 000:924 JLINK_WriteReg(R10, 0x00000000)  returns 0x00 (0000ms, 0644ms total)
T6404 000:924 JLINK_WriteReg(R11, 0x00000000)  returns 0x00 (0000ms, 0644ms total)
T6404 000:924 JLINK_WriteReg(R12, 0x00000000)  returns 0x00 (0000ms, 0644ms total)
T6404 000:924 JLINK_WriteReg(R13 (SP), 0x20001000)  returns 0x00 (0000ms, 0644ms total)
T6404 000:924 JLINK_WriteReg(R14, 0x20000001)  returns 0x00 (0000ms, 0644ms total)
T6404 000:924 JLINK_WriteReg(R15 (PC), 0x200000F4)  returns 0x00 (0000ms, 0644ms total)
T6404 000:924 JLINK_WriteReg(XPSR, 0x01000000)  returns 0x00 (0000ms, 0644ms total)
T6404 000:924 JLINK_WriteReg(MSP, 0x20001000)  returns 0x00 (0000ms, 0644ms total)
T6404 000:924 JLINK_WriteReg(PSP, 0x20001000)  returns 0x00 (0000ms, 0644ms total)
T6404 000:924 JLINK_WriteReg(CFBP, 0x00000000)  returns 0x00 (0000ms, 0644ms total)
T6404 000:924 JLINK_SetBPEx(Addr = 0x20000000, Type = 0xFFFFFFF2)  returns 0x00000009 (0000ms, 0644ms total)
T6404 000:924 JLINK_Go() -- CPU_ReadMem(4 bytes @ 0xE0001000) (0002ms, 0646ms total)
T6404 000:926 JLINK_IsHalted()  returns FALSE (0000ms, 0646ms total)
T6404 000:931 JLINK_IsHalted()  returns FALSE (0000ms, 0646ms total)
T6404 000:935 JLINK_IsHalted()  returns FALSE (0000ms, 0646ms total)
T6404 000:938 JLINK_IsHalted()  returns FALSE (0000ms, 0646ms total)
T6404 000:940 JLINK_IsHalted()  returns FALSE (0000ms, 0646ms total)
T6404 000:942 JLINK_IsHalted()  returns FALSE (0000ms, 0646ms total)
T6404 000:944 JLINK_IsHalted()  returns FALSE (0000ms, 0646ms total)
T6404 000:946 JLINK_IsHalted()  returns FALSE (0000ms, 0646ms total)
T6404 000:948 JLINK_IsHalted()  returns FALSE (0000ms, 0646ms total)
T6404 000:950 JLINK_IsHalted()  returns FALSE (0000ms, 0646ms total)
T6404 000:952 JLINK_IsHalted()  returns FALSE (0000ms, 0646ms total)
T6404 000:954 JLINK_IsHalted()  returns FALSE (0000ms, 0646ms total)
T6404 000:956 JLINK_IsHalted()  returns FALSE (0000ms, 0646ms total)
T6404 000:958 JLINK_IsHalted() -- CPU_ReadMem(2 bytes @ 0x20000000)  returns TRUE (0002ms, 0648ms total)
T6404 000:960 JLINK_ReadReg(R15 (PC))  returns 0x20000000 (0000ms, 0646ms total)
T6404 000:960 JLINK_ClrBPEx(BPHandle = 0x00000009)  returns 0x00 (0000ms, 0646ms total)
T6404 000:960 JLINK_ReadReg(R0)  returns 0x00000000 (0000ms, 0646ms total)
T6404 000:960 JLINK_WriteMem(0x20000164, 0x0400 Bytes, ...) - Data: 01 E0 00 E0 00 BF 00 BF 00 BD 00 00 8A 55 00 20 ... -- CPU_WriteMem(1024 bytes @ 0x20000164)  returns 0x400 (0006ms, 0652ms total)
T6404 000:966 JLINK_WriteReg(R0, 0x08001400)  returns 0x00 (0000ms, 0652ms total)
T6404 000:966 JLINK_WriteReg(R1, 0x00000400)  returns 0x00 (0000ms, 0652ms total)
T6404 000:966 JLINK_WriteReg(R2, 0x20000164)  returns 0x00 (0000ms, 0652ms total)
T6404 000:966 JLINK_WriteReg(R3, 0x00000000)  returns 0x00 (0000ms, 0652ms total)
T6404 000:966 JLINK_WriteReg(R4, 0x00000000)  returns 0x00 (0000ms, 0652ms total)
T6404 000:966 JLINK_WriteReg(R5, 0x00000000)  returns 0x00 (0000ms, 0652ms total)
T6404 000:966 JLINK_WriteReg(R6, 0x00000000)  returns 0x00 (0000ms, 0652ms total)
T6404 000:966 JLINK_WriteReg(R7, 0x00000000)  returns 0x00 (0000ms, 0652ms total)
T6404 000:966 JLINK_WriteReg(R8, 0x00000000)  returns 0x00 (0000ms, 0652ms total)
T6404 000:966 JLINK_WriteReg(R9, 0x20000160)  returns 0x00 (0000ms, 0652ms total)
T6404 000:966 JLINK_WriteReg(R10, 0x00000000)  returns 0x00 (0000ms, 0652ms total)
T6404 000:966 JLINK_WriteReg(R11, 0x00000000)  returns 0x00 (0000ms, 0652ms total)
T6404 000:966 JLINK_WriteReg(R12, 0x00000000)  returns 0x00 (0000ms, 0652ms total)
T6404 000:966 JLINK_WriteReg(R13 (SP), 0x20001000)  returns 0x00 (0000ms, 0652ms total)
T6404 000:966 JLINK_WriteReg(R14, 0x20000001)  returns 0x00 (0000ms, 0652ms total)
T6404 000:966 JLINK_WriteReg(R15 (PC), 0x200000F4)  returns 0x00 (0000ms, 0652ms total)
T6404 000:966 JLINK_WriteReg(XPSR, 0x01000000)  returns 0x00 (0000ms, 0652ms total)
T6404 000:966 JLINK_WriteReg(MSP, 0x20001000)  returns 0x00 (0000ms, 0652ms total)
T6404 000:966 JLINK_WriteReg(PSP, 0x20001000)  returns 0x00 (0000ms, 0652ms total)
T6404 000:966 JLINK_WriteReg(CFBP, 0x00000000)  returns 0x00 (0000ms, 0652ms total)
T6404 000:966 JLINK_SetBPEx(Addr = 0x20000000, Type = 0xFFFFFFF2)  returns 0x0000000A (0000ms, 0652ms total)
T6404 000:966 JLINK_Go() -- CPU_ReadMem(4 bytes @ 0xE0001000) (0002ms, 0654ms total)
T6404 000:968 JLINK_IsHalted()  returns FALSE (0000ms, 0654ms total)
T6404 000:970 JLINK_IsHalted()  returns FALSE (0000ms, 0654ms total)
T6404 000:973 JLINK_IsHalted()  returns FALSE (0000ms, 0654ms total)
T6404 000:975 JLINK_IsHalted()  returns FALSE (0000ms, 0654ms total)
T6404 000:977 JLINK_IsHalted()  returns FALSE (0000ms, 0654ms total)
T6404 000:979 JLINK_IsHalted()  returns FALSE (0000ms, 0654ms total)
T6404 000:981 JLINK_IsHalted()  returns FALSE (0000ms, 0654ms total)
T6404 000:983 JLINK_IsHalted()  returns FALSE (0000ms, 0654ms total)
T6404 000:985 JLINK_IsHalted()  returns FALSE (0000ms, 0654ms total)
T6404 000:987 JLINK_IsHalted()  returns FALSE (0000ms, 0654ms total)
T6404 000:989 JLINK_IsHalted()  returns FALSE (0000ms, 0654ms total)
T6404 000:991 JLINK_IsHalted()  returns FALSE (0000ms, 0654ms total)
T6404 000:993 JLINK_IsHalted()  returns FALSE (0000ms, 0654ms total)
T6404 000:995 JLINK_IsHalted()  returns FALSE (0000ms, 0654ms total)
T6404 000:997 JLINK_IsHalted()  returns FALSE (0000ms, 0654ms total)
T6404 000:999 JLINK_IsHalted()  returns FALSE (0000ms, 0654ms total)
T6404 001:001 JLINK_IsHalted() -- CPU_ReadMem(2 bytes @ 0x20000000)  returns TRUE (0002ms, 0656ms total)
T6404 001:003 JLINK_ReadReg(R15 (PC))  returns 0x20000000 (0000ms, 0654ms total)
T6404 001:003 JLINK_ClrBPEx(BPHandle = 0x0000000A)  returns 0x00 (0000ms, 0654ms total)
T6404 001:003 JLINK_ReadReg(R0)  returns 0x00000000 (0000ms, 0654ms total)
T6404 001:003 JLINK_WriteMem(0x20000164, 0x0400 Bytes, ...) - Data: 01 EB C4 01 4B 68 04 EB C4 01 11 44 C8 78 14 22 ... -- CPU_WriteMem(1024 bytes @ 0x20000164)  returns 0x400 (0006ms, 0660ms total)
T6404 001:009 JLINK_WriteReg(R0, 0x08001800)  returns 0x00 (0000ms, 0660ms total)
T6404 001:009 JLINK_WriteReg(R1, 0x00000400)  returns 0x00 (0000ms, 0660ms total)
T6404 001:009 JLINK_WriteReg(R2, 0x20000164)  returns 0x00 (0000ms, 0660ms total)
T6404 001:009 JLINK_WriteReg(R3, 0x00000000)  returns 0x00 (0000ms, 0660ms total)
T6404 001:009 JLINK_WriteReg(R4, 0x00000000)  returns 0x00 (0000ms, 0660ms total)
T6404 001:009 JLINK_WriteReg(R5, 0x00000000)  returns 0x00 (0000ms, 0660ms total)
T6404 001:009 JLINK_WriteReg(R6, 0x00000000)  returns 0x00 (0000ms, 0660ms total)
T6404 001:009 JLINK_WriteReg(R7, 0x00000000)  returns 0x00 (0000ms, 0660ms total)
T6404 001:009 JLINK_WriteReg(R8, 0x00000000)  returns 0x00 (0000ms, 0660ms total)
T6404 001:009 JLINK_WriteReg(R9, 0x20000160)  returns 0x00 (0000ms, 0660ms total)
T6404 001:009 JLINK_WriteReg(R10, 0x00000000)  returns 0x00 (0000ms, 0660ms total)
T6404 001:009 JLINK_WriteReg(R11, 0x00000000)  returns 0x00 (0000ms, 0660ms total)
T6404 001:009 JLINK_WriteReg(R12, 0x00000000)  returns 0x00 (0000ms, 0660ms total)
T6404 001:009 JLINK_WriteReg(R13 (SP), 0x20001000)  returns 0x00 (0000ms, 0660ms total)
T6404 001:009 JLINK_WriteReg(R14, 0x20000001)  returns 0x00 (0000ms, 0660ms total)
T6404 001:009 JLINK_WriteReg(R15 (PC), 0x200000F4)  returns 0x00 (0001ms, 0661ms total)
T6404 001:010 JLINK_WriteReg(XPSR, 0x01000000)  returns 0x00 (0000ms, 0661ms total)
T6404 001:010 JLINK_WriteReg(MSP, 0x20001000)  returns 0x00 (0000ms, 0661ms total)
T6404 001:010 JLINK_WriteReg(PSP, 0x20001000)  returns 0x00 (0000ms, 0661ms total)
T6404 001:010 JLINK_WriteReg(CFBP, 0x00000000)  returns 0x00 (0000ms, 0661ms total)
T6404 001:010 JLINK_SetBPEx(Addr = 0x20000000, Type = 0xFFFFFFF2)  returns 0x0000000B (0000ms, 0661ms total)
T6404 001:010 JLINK_Go() -- CPU_ReadMem(4 bytes @ 0xE0001000) (0001ms, 0662ms total)
T6404 001:011 JLINK_IsHalted()  returns FALSE (0001ms, 0663ms total)
T6404 001:014 JLINK_IsHalted()  returns FALSE (0000ms, 0662ms total)
T6404 001:016 JLINK_IsHalted()  returns FALSE (0000ms, 0662ms total)
T6404 001:018 JLINK_IsHalted()  returns FALSE (0000ms, 0662ms total)
T6404 001:020 JLINK_IsHalted()  returns FALSE (0000ms, 0662ms total)
T6404 001:022 JLINK_IsHalted()  returns FALSE (0000ms, 0662ms total)
T6404 001:024 JLINK_IsHalted()  returns FALSE (0000ms, 0662ms total)
T6404 001:026 JLINK_IsHalted()  returns FALSE (0000ms, 0662ms total)
T6404 001:028 JLINK_IsHalted()  returns FALSE (0000ms, 0662ms total)
T6404 001:030 JLINK_IsHalted()  returns FALSE (0000ms, 0662ms total)
T6404 001:032 JLINK_IsHalted()  returns FALSE (0000ms, 0662ms total)
T6404 001:034 JLINK_IsHalted()  returns FALSE (0000ms, 0662ms total)
T6404 001:036 JLINK_IsHalted()  returns FALSE (0000ms, 0662ms total)
T6404 001:038 JLINK_IsHalted()  returns FALSE (0000ms, 0662ms total)
T6404 001:040 JLINK_IsHalted()  returns FALSE (0000ms, 0662ms total)
T6404 001:042 JLINK_IsHalted() -- CPU_ReadMem(2 bytes @ 0x20000000)  returns TRUE (0002ms, 0664ms total)
T6404 001:044 JLINK_ReadReg(R15 (PC))  returns 0x20000000 (0000ms, 0662ms total)
T6404 001:044 JLINK_ClrBPEx(BPHandle = 0x0000000B)  returns 0x00 (0000ms, 0662ms total)
T6404 001:044 JLINK_ReadReg(R0)  returns 0x00000000 (0000ms, 0662ms total)
T6404 001:044 JLINK_WriteMem(0x20000164, 0x0400 Bytes, ...) - Data: 01 21 2E 48 40 1C 00 F0 5D F8 04 46 00 2C 4B D1 ... -- CPU_WriteMem(1024 bytes @ 0x20000164)  returns 0x400 (0006ms, 0668ms total)
T6404 001:050 JLINK_WriteReg(R0, 0x08001C00)  returns 0x00 (0000ms, 0668ms total)
T6404 001:050 JLINK_WriteReg(R1, 0x00000400)  returns 0x00 (0000ms, 0668ms total)
T6404 001:050 JLINK_WriteReg(R2, 0x20000164)  returns 0x00 (0000ms, 0668ms total)
T6404 001:050 JLINK_WriteReg(R3, 0x00000000)  returns 0x00 (0000ms, 0668ms total)
T6404 001:050 JLINK_WriteReg(R4, 0x00000000)  returns 0x00 (0000ms, 0668ms total)
T6404 001:050 JLINK_WriteReg(R5, 0x00000000)  returns 0x00 (0000ms, 0668ms total)
T6404 001:050 JLINK_WriteReg(R6, 0x00000000)  returns 0x00 (0000ms, 0668ms total)
T6404 001:050 JLINK_WriteReg(R7, 0x00000000)  returns 0x00 (0000ms, 0668ms total)
T6404 001:050 JLINK_WriteReg(R8, 0x00000000)  returns 0x00 (0000ms, 0668ms total)
T6404 001:050 JLINK_WriteReg(R9, 0x20000160)  returns 0x00 (0000ms, 0668ms total)
T6404 001:050 JLINK_WriteReg(R10, 0x00000000)  returns 0x00 (0000ms, 0668ms total)
T6404 001:050 JLINK_WriteReg(R11, 0x00000000)  returns 0x00 (0001ms, 0669ms total)
T6404 001:051 JLINK_WriteReg(R12, 0x00000000)  returns 0x00 (0000ms, 0669ms total)
T6404 001:051 JLINK_WriteReg(R13 (SP), 0x20001000)  returns 0x00 (0000ms, 0669ms total)
T6404 001:051 JLINK_WriteReg(R14, 0x20000001)  returns 0x00 (0000ms, 0669ms total)
T6404 001:051 JLINK_WriteReg(R15 (PC), 0x200000F4)  returns 0x00 (0000ms, 0669ms total)
T6404 001:051 JLINK_WriteReg(XPSR, 0x01000000)  returns 0x00 (0000ms, 0669ms total)
T6404 001:051 JLINK_WriteReg(MSP, 0x20001000)  returns 0x00 (0000ms, 0669ms total)
T6404 001:051 JLINK_WriteReg(PSP, 0x20001000)  returns 0x00 (0000ms, 0669ms total)
T6404 001:051 JLINK_WriteReg(CFBP, 0x00000000)  returns 0x00 (0000ms, 0669ms total)
T6404 001:051 JLINK_SetBPEx(Addr = 0x20000000, Type = 0xFFFFFFF2)  returns 0x0000000C (0000ms, 0669ms total)
T6404 001:051 JLINK_Go() -- CPU_ReadMem(4 bytes @ 0xE0001000) (0001ms, 0670ms total)
T6404 001:052 JLINK_IsHalted()  returns FALSE (0000ms, 0670ms total)
T6404 001:055 JLINK_IsHalted()  returns FALSE (0000ms, 0670ms total)
T6404 001:057 JLINK_IsHalted()  returns FALSE (0000ms, 0670ms total)
T6404 001:059 JLINK_IsHalted()  returns FALSE (0000ms, 0670ms total)
T6404 001:061 JLINK_IsHalted()  returns FALSE (0000ms, 0670ms total)
T6404 001:063 JLINK_IsHalted()  returns FALSE (0000ms, 0670ms total)
T6404 001:065 JLINK_IsHalted()  returns FALSE (0000ms, 0670ms total)
T6404 001:067 JLINK_IsHalted()  returns FALSE (0000ms, 0670ms total)
T6404 001:069 JLINK_IsHalted()  returns FALSE (0000ms, 0670ms total)
T6404 001:070 JLINK_IsHalted()  returns FALSE (0000ms, 0670ms total)
T6404 001:073 JLINK_IsHalted()  returns FALSE (0000ms, 0670ms total)
T6404 001:075 JLINK_IsHalted()  returns FALSE (0000ms, 0670ms total)
T6404 001:077 JLINK_IsHalted()  returns FALSE (0000ms, 0670ms total)
T6404 001:079 JLINK_IsHalted()  returns FALSE (0000ms, 0670ms total)
T6404 001:081 JLINK_IsHalted()  returns FALSE (0000ms, 0670ms total)
T6404 001:083 JLINK_IsHalted() -- CPU_ReadMem(2 bytes @ 0x20000000)  returns TRUE (0002ms, 0672ms total)
T6404 001:085 JLINK_ReadReg(R15 (PC))  returns 0x20000000 (0000ms, 0670ms total)
T6404 001:085 JLINK_ClrBPEx(BPHandle = 0x0000000C)  returns 0x00 (0000ms, 0670ms total)
T6404 001:085 JLINK_ReadReg(R0)  returns 0x00000000 (0000ms, 0670ms total)
T6404 001:085 JLINK_WriteMem(0x20000164, 0x0400 Bytes, ...) - Data: AD F8 18 00 06 A9 15 48 00 F0 24 FA 4F F4 82 70 ... -- CPU_WriteMem(1024 bytes @ 0x20000164)  returns 0x400 (0006ms, 0676ms total)
T6404 001:091 JLINK_WriteReg(R0, 0x08002000)  returns 0x00 (0000ms, 0676ms total)
T6404 001:091 JLINK_WriteReg(R1, 0x00000400)  returns 0x00 (0000ms, 0676ms total)
T6404 001:091 JLINK_WriteReg(R2, 0x20000164)  returns 0x00 (0000ms, 0676ms total)
T6404 001:091 JLINK_WriteReg(R3, 0x00000000)  returns 0x00 (0000ms, 0676ms total)
T6404 001:091 JLINK_WriteReg(R4, 0x00000000)  returns 0x00 (0000ms, 0676ms total)
T6404 001:091 JLINK_WriteReg(R5, 0x00000000)  returns 0x00 (0000ms, 0676ms total)
T6404 001:091 JLINK_WriteReg(R6, 0x00000000)  returns 0x00 (0000ms, 0676ms total)
T6404 001:091 JLINK_WriteReg(R7, 0x00000000)  returns 0x00 (0000ms, 0676ms total)
T6404 001:091 JLINK_WriteReg(R8, 0x00000000)  returns 0x00 (0000ms, 0676ms total)
T6404 001:091 JLINK_WriteReg(R9, 0x20000160)  returns 0x00 (0000ms, 0676ms total)
T6404 001:091 JLINK_WriteReg(R10, 0x00000000)  returns 0x00 (0000ms, 0676ms total)
T6404 001:091 JLINK_WriteReg(R11, 0x00000000)  returns 0x00 (0000ms, 0676ms total)
T6404 001:091 JLINK_WriteReg(R12, 0x00000000)  returns 0x00 (0000ms, 0676ms total)
T6404 001:091 JLINK_WriteReg(R13 (SP), 0x20001000)  returns 0x00 (0000ms, 0676ms total)
T6404 001:091 JLINK_WriteReg(R14, 0x20000001)  returns 0x00 (0000ms, 0676ms total)
T6404 001:091 JLINK_WriteReg(R15 (PC), 0x200000F4)  returns 0x00 (0000ms, 0676ms total)
T6404 001:091 JLINK_WriteReg(XPSR, 0x01000000)  returns 0x00 (0000ms, 0676ms total)
T6404 001:091 JLINK_WriteReg(MSP, 0x20001000)  returns 0x00 (0000ms, 0676ms total)
T6404 001:091 JLINK_WriteReg(PSP, 0x20001000)  returns 0x00 (0000ms, 0676ms total)
T6404 001:091 JLINK_WriteReg(CFBP, 0x00000000)  returns 0x00 (0000ms, 0676ms total)
T6404 001:091 JLINK_SetBPEx(Addr = 0x20000000, Type = 0xFFFFFFF2)  returns 0x0000000D (0000ms, 0676ms total)
T6404 001:091 JLINK_Go() -- CPU_ReadMem(4 bytes @ 0xE0001000) (0002ms, 0678ms total)
T6404 001:093 JLINK_IsHalted()  returns FALSE (0000ms, 0678ms total)
T6404 001:095 JLINK_IsHalted()  returns FALSE (0000ms, 0678ms total)
T6404 001:097 JLINK_IsHalted()  returns FALSE (0000ms, 0678ms total)
T6404 001:099 JLINK_IsHalted()  returns FALSE (0000ms, 0678ms total)
T6404 001:101 JLINK_IsHalted()  returns FALSE (0000ms, 0678ms total)
T6404 001:103 JLINK_IsHalted()  returns FALSE (0000ms, 0678ms total)
T6404 001:105 JLINK_IsHalted()  returns FALSE (0000ms, 0678ms total)
T6404 001:107 JLINK_IsHalted()  returns FALSE (0000ms, 0678ms total)
T6404 001:109 JLINK_IsHalted()  returns FALSE (0000ms, 0678ms total)
T6404 001:111 JLINK_IsHalted()  returns FALSE (0000ms, 0678ms total)
T6404 001:113 JLINK_IsHalted()  returns FALSE (0000ms, 0678ms total)
T6404 001:115 JLINK_IsHalted()  returns FALSE (0000ms, 0678ms total)
T6404 001:117 JLINK_IsHalted()  returns FALSE (0000ms, 0678ms total)
T6404 001:119 JLINK_IsHalted()  returns FALSE (0000ms, 0678ms total)
T6404 001:121 JLINK_IsHalted()  returns FALSE (0000ms, 0678ms total)
T6404 001:123 JLINK_IsHalted()  returns FALSE (0000ms, 0678ms total)
T6404 001:125 JLINK_IsHalted() -- CPU_ReadMem(2 bytes @ 0x20000000)  returns TRUE (0002ms, 0680ms total)
T6404 001:127 JLINK_ReadReg(R15 (PC))  returns 0x20000000 (0000ms, 0678ms total)
T6404 001:127 JLINK_ClrBPEx(BPHandle = 0x0000000D)  returns 0x00 (0000ms, 0678ms total)
T6404 001:127 JLINK_ReadReg(R0)  returns 0x00000000 (0000ms, 0678ms total)
T6404 001:127 JLINK_WriteMem(0x20000164, 0x0400 Bytes, ...) - Data: 02 79 11 44 0A 68 03 68 9A 43 0A 60 70 47 00 00 ... -- CPU_WriteMem(1024 bytes @ 0x20000164)  returns 0x400 (0006ms, 0684ms total)
T6404 001:133 JLINK_WriteReg(R0, 0x08002400)  returns 0x00 (0000ms, 0684ms total)
T6404 001:133 JLINK_WriteReg(R1, 0x00000400)  returns 0x00 (0000ms, 0684ms total)
T6404 001:133 JLINK_WriteReg(R2, 0x20000164)  returns 0x00 (0000ms, 0684ms total)
T6404 001:133 JLINK_WriteReg(R3, 0x00000000)  returns 0x00 (0000ms, 0684ms total)
T6404 001:133 JLINK_WriteReg(R4, 0x00000000)  returns 0x00 (0000ms, 0684ms total)
T6404 001:133 JLINK_WriteReg(R5, 0x00000000)  returns 0x00 (0000ms, 0684ms total)
T6404 001:133 JLINK_WriteReg(R6, 0x00000000)  returns 0x00 (0000ms, 0684ms total)
T6404 001:133 JLINK_WriteReg(R7, 0x00000000)  returns 0x00 (0000ms, 0684ms total)
T6404 001:133 JLINK_WriteReg(R8, 0x00000000)  returns 0x00 (0000ms, 0684ms total)
T6404 001:133 JLINK_WriteReg(R9, 0x20000160)  returns 0x00 (0000ms, 0684ms total)
T6404 001:133 JLINK_WriteReg(R10, 0x00000000)  returns 0x00 (0000ms, 0684ms total)
T6404 001:133 JLINK_WriteReg(R11, 0x00000000)  returns 0x00 (0000ms, 0684ms total)
T6404 001:133 JLINK_WriteReg(R12, 0x00000000)  returns 0x00 (0000ms, 0684ms total)
T6404 001:133 JLINK_WriteReg(R13 (SP), 0x20001000)  returns 0x00 (0000ms, 0684ms total)
T6404 001:133 JLINK_WriteReg(R14, 0x20000001)  returns 0x00 (0000ms, 0684ms total)
T6404 001:133 JLINK_WriteReg(R15 (PC), 0x200000F4)  returns 0x00 (0000ms, 0684ms total)
T6404 001:133 JLINK_WriteReg(XPSR, 0x01000000)  returns 0x00 (0000ms, 0684ms total)
T6404 001:133 JLINK_WriteReg(MSP, 0x20001000)  returns 0x00 (0000ms, 0684ms total)
T6404 001:133 JLINK_WriteReg(PSP, 0x20001000)  returns 0x00 (0000ms, 0684ms total)
T6404 001:133 JLINK_WriteReg(CFBP, 0x00000000)  returns 0x00 (0000ms, 0684ms total)
